T23A0 000:005.175   SEGGER J-Link V6.94d Log File
T23A0 000:005.377   DLL Compiled: Feb 12 2021 15:52:57
T23A0 000:005.388   Logging started @ 2022-05-26 06:38
T23A0 000:005.400 - 5.406ms
T23A0 000:005.419 JLINK_SetWarnOutHandler(...)
T23A0 000:005.431 - 0.017ms
T23A0 000:005.443 JLINK_OpenEx(...)
T23A0 000:007.034   Firmware: J-Link V9 compiled May  7 2021 16:26:12
T23A0 000:007.468   Firmware: J-Link V9 compiled May  7 2021 16:26:12
T23A0 000:007.622   Decompressing FW timestamp took 105 us
T23A0 000:014.105   Hardware: V9.60
T23A0 000:014.134   S/N: 20684018
T23A0 000:014.153   OEM: SEGGER
T23A0 000:014.172   Feature(s): None
T23A0 000:015.344   TELNET listener socket opened on port 19021
T23A0 000:015.446   WEBSRV Starting webserver
T23A0 000:015.575   WEBSRV Webserver running on local port 19080
T23A0 000:015.593 - 10.155ms returns "O.K."
T23A0 000:015.612 JLINK_GetEmuCaps()
T23A0 000:015.622 - 0.015ms returns 0xB9FF7BBF
T23A0 000:015.637 JLINK_TIF_GetAvailable(...)
T23A0 000:015.764 - 0.134ms
T23A0 000:015.779 JLINK_SetErrorOutHandler(...)
T23A0 000:015.790 - 0.015ms
T23A0 000:015.817 JLINK_ExecCommand("ProjectFile = "E:\KmdFoc\Tools\UsbCanBus\software\CanUsb-V3\MDK-ARM\JLinkSettings.ini"", ...). 
T23A0 000:021.800   Ref file found at: D:\Keil_v5\ARM\Segger\JLinkDevices.ref
T23A0 000:021.996   XML referenced by ref file: D:\SEGGER\JLink\JLinkDevices.xml
T23A0 000:022.652   D:\SEGGER\JLink\JLinkDevices.xml evaluated successfully.
T23A0 000:033.917   Device "GD32E103C8" selected.
T23A0 000:034.323 - 18.514ms returns 0x00
T23A0 000:036.697 JLINK_ExecCommand("Device = GD32C103CB", ...). 
T23A0 000:039.005   Device "GD32E103C8" selected.
T23A0 000:039.299 - 2.591ms returns 0x00
T23A0 000:039.319 JLINK_GetHardwareVersion()
T23A0 000:039.330 - 0.016ms returns 96000
T23A0 000:039.341 JLINK_GetDLLVersion()
T23A0 000:039.352 - 0.015ms returns 69404
T23A0 000:039.363 JLINK_GetOEMString(...)
T23A0 000:039.374 JLINK_GetFirmwareString(...)
T23A0 000:039.385 - 0.015ms
T23A0 000:048.731 JLINK_GetDLLVersion()
T23A0 000:048.766 - 0.040ms returns 69404
T23A0 000:048.778 JLINK_GetCompileDateTime()
T23A0 000:048.788 - 0.015ms
T23A0 000:050.922 JLINK_GetFirmwareString(...)
T23A0 000:050.938 - 0.021ms
T23A0 000:053.059 JLINK_GetHardwareVersion()
T23A0 000:053.075 - 0.021ms returns 96000
T23A0 000:055.537 JLINK_GetSN()
T23A0 000:055.555 - 0.023ms returns 20684018
T23A0 000:057.709 JLINK_GetOEMString(...)
T23A0 000:059.849 JLINK_TIF_Select(JLINKARM_TIF_SWD)
T23A0 000:060.796 - 0.959ms returns 0x00
T23A0 000:060.818 JLINK_HasError()
T23A0 000:060.846 JLINK_SetSpeed(5000)
T23A0 000:061.143 - 0.306ms
T23A0 000:061.166 JLINK_GetId()
T23A0 000:064.109   Found SW-DP with ID 0x2BA01477
T23A0 000:069.023   DPIDR: 0x2BA01477
T23A0 000:071.299   Scanning AP map to find all available APs
T23A0 000:074.105   AP[1]: Stopped AP scan as end of AP map has been reached
T23A0 000:076.256   AP[0]: AHB-AP (IDR: 0x24770011)
T23A0 000:078.424   Iterating through AP map to find AHB-AP to use
T23A0 000:081.482   AP[0]: Core found
T23A0 000:083.658   AP[0]: AHB-AP ROM base: 0xE00FF000
T23A0 000:086.328   CPUID register: 0x410FC241. Implementer code: 0x41 (ARM)
T23A0 000:088.514   Found Cortex-M4 r0p1, Little endian.
T23A0 000:189.924   -- Max. mem block: 0x00010C40
T23A0 000:190.352   CPU_ReadMem(4 bytes @ 0xE000EDF0)
T23A0 000:190.678   CPU_WriteMem(4 bytes @ 0xE000EDF0)
T23A0 000:191.054   CPU_ReadMem(4 bytes @ 0xE0002000)
T23A0 000:194.466   FPUnit: 6 code (BP) slots and 2 literal slots
T23A0 000:194.494   CPU_ReadMem(4 bytes @ 0xE000EDFC)
T23A0 000:194.816   CPU_WriteMem(4 bytes @ 0xE000EDFC)
T23A0 000:195.187   CPU_ReadMem(4 bytes @ 0xE0001000)
T23A0 000:195.478   CPU_WriteMem(4 bytes @ 0xE0001000)
T23A0 000:195.790   CPU_ReadMem(4 bytes @ 0xE000ED88)
T23A0 000:196.157   CPU_WriteMem(4 bytes @ 0xE000ED88)
T23A0 000:196.538   CPU_ReadMem(4 bytes @ 0xE000ED88)
T23A0 000:196.921   CPU_WriteMem(4 bytes @ 0xE000ED88)
T23A0 000:199.956   CoreSight components:
T23A0 000:202.562   ROMTbl[0] @ E00FF000
T23A0 000:202.649   CPU_ReadMem(64 bytes @ 0xE00FF000)
T23A0 000:203.287   CPU_ReadMem(32 bytes @ 0xE000EFE0)
T23A0 000:210.535   ROMTbl[0][0]: E000E000, CID: B105E00D, PID: 000BB00C SCS-M7
T23A0 000:210.564   CPU_ReadMem(32 bytes @ 0xE0001FE0)
T23A0 000:213.731   ROMTbl[0][1]: E0001000, CID: B105E00D, PID: 003BB002 DWT
T23A0 000:213.759   CPU_ReadMem(32 bytes @ 0xE0002FE0)
T23A0 000:216.721   ROMTbl[0][2]: E0002000, CID: B105E00D, PID: 002BB003 FPB
T23A0 000:216.749   CPU_ReadMem(32 bytes @ 0xE0000FE0)
T23A0 000:222.754   ROMTbl[0][3]: E0000000, CID: B105E00D, PID: 003BB001 ITM
T23A0 000:222.781   CPU_ReadMem(32 bytes @ 0xE0040FE0)
T23A0 000:225.654   ROMTbl[0][4]: E0040000, CID: B105900D, PID: 000BB9A1 TPIU
T23A0 000:225.678   CPU_ReadMem(32 bytes @ 0xE0041FE0)
T23A0 000:228.968   ROMTbl[0][5]: E0041000, CID: 00000000, PID: 00000000 ???
T23A0 000:229.261 - 168.103ms returns 0x2BA01477
T23A0 000:229.281 JLINK_GetDLLVersion()
T23A0 000:229.292 - 0.016ms returns 69404
T23A0 000:229.338 JLINK_CORE_GetFound()
T23A0 000:229.349 - 0.016ms returns 0xE0000FF
T23A0 000:229.373 JLINK_GetDebugInfo(0x100 = JLINKARM_ROM_TABLE_ADDR_INDEX)
T23A0 000:229.385   Value=0xE00FF000
T23A0 000:229.400 - 0.032ms returns 0
T23A0 000:234.799 JLINK_GetDebugInfo(0x100 = JLINKARM_ROM_TABLE_ADDR_INDEX)
T23A0 000:234.817   Value=0xE00FF000
T23A0 000:234.832 - 0.037ms returns 0
T23A0 000:234.843 JLINK_GetDebugInfo(0x101 = JLINKARM_DEBUG_INFO_ETM_ADDR_INDEX)
T23A0 000:234.854   Value=0x00000000
T23A0 000:234.870 - 0.031ms returns 0
T23A0 000:234.882 JLINK_ReadMemEx(0xE0041FF0, 0x10 Bytes, Flags = 0x02000004)
T23A0 000:234.910   CPU_ReadMem(16 bytes @ 0xE0041FF0)
T23A0 000:235.341   Data:  00 00 00 00 00 00 00 00 00 00 00 00 00 00 00 00
T23A0 000:235.358 - 0.481ms returns 16 (0x10)
T23A0 000:235.371 JLINK_GetDebugInfo(0x102 = JLINKARM_DEBUG_INFO_MTB_ADDR_INDEX)
T23A0 000:235.381   Value=0x00000000
T23A0 000:235.396 - 0.030ms returns 0
T23A0 000:235.408 JLINK_GetDebugInfo(0x103 = JLINKARM_DEBUG_INFO_TPIU_ADDR_INDEX)
T23A0 000:235.418   Value=0xE0040000
T23A0 000:235.433 - 0.030ms returns 0
T23A0 000:235.444 JLINK_GetDebugInfo(0x104 = JLINKARM_DEBUG_INFO_ITM_ADDR_INDEX)
T23A0 000:235.454   Value=0xE0000000
T23A0 000:235.469 - 0.030ms returns 0
T23A0 000:235.480 JLINK_GetDebugInfo(0x105 = JLINKARM_DEBUG_INFO_DWT_ADDR_INDEX)
T23A0 000:235.491   Value=0xE0001000
T23A0 000:235.506 - 0.030ms returns 0
T23A0 000:235.517 JLINK_GetDebugInfo(0x106 = JLINKARM_DEBUG_INFO_FPB_ADDR_INDEX)
T23A0 000:235.527   Value=0xE0002000
T23A0 000:235.542 - 0.030ms returns 0
T23A0 000:235.553 JLINK_GetDebugInfo(0x107 = JLINKARM_DEBUG_INFO_NVIC_ADDR_INDEX)
T23A0 000:235.563   Value=0xE000E000
T23A0 000:235.578 - 0.030ms returns 0
T23A0 000:235.589 JLINK_GetDebugInfo(0x10C = JLINKARM_DEBUG_INFO_DBG_ADDR_INDEX)
T23A0 000:235.600   Value=0xE000EDF0
T23A0 000:235.614 - 0.030ms returns 0
T23A0 000:235.625 JLINK_GetDebugInfo(0x01 = Unknown)
T23A0 000:235.636   Value=0x00000001
T23A0 000:235.651 - 0.030ms returns 0
T23A0 000:235.662 JLINK_ReadMemU32(0xE000ED00, 0x1 Items)
T23A0 000:235.675   CPU_ReadMem(4 bytes @ 0xE000ED00)
T23A0 000:236.025   Data:  41 C2 0F 41
T23A0 000:236.044   Debug reg: CPUID
T23A0 000:236.059 - 0.403ms returns 1 (0x1)
T23A0 000:236.071 JLINK_GetDebugInfo(0x10F = JLINKARM_DEBUG_INFO_HAS_CORTEX_M_SECURITY_EXT_INDEX)
T23A0 000:236.082   Value=0x00000000
T23A0 000:236.097 - 0.030ms returns 0
T23A0 000:236.109 JLINK_HasError()
T23A0 000:236.120 JLINK_SetResetType(JLINKARM_CM3_RESET_TYPE_NORMAL)
T23A0 000:236.131 - 0.015ms returns JLINKARM_CM3_RESET_TYPE_NORMAL
T23A0 000:236.142 JLINK_Reset()
T23A0 000:236.168   CPU is running
T23A0 000:236.184   CPU_WriteMem(4 bytes @ 0xE000EDF0)
T23A0 000:236.540   CPU is running
T23A0 000:236.557   CPU_WriteMem(4 bytes @ 0xE000EDFC)
T23A0 000:239.121   Reset: Halt core after reset via DEMCR.VC_CORERESET.
T23A0 000:241.890   Reset: Reset device via AIRCR.SYSRESETREQ.
T23A0 000:241.912   CPU is running
T23A0 000:241.929   CPU_WriteMem(4 bytes @ 0xE000ED0C)
T23A0 000:295.014   CPU_ReadMem(4 bytes @ 0xE000EDF0)
T23A0 000:295.428   CPU_ReadMem(4 bytes @ 0xE000EDF0)
T23A0 000:295.701   CPU is running
T23A0 000:295.730   CPU_WriteMem(4 bytes @ 0xE000EDF0)
T23A0 000:296.046   CPU is running
T23A0 000:296.074   CPU_WriteMem(4 bytes @ 0xE000EDFC)
T23A0 000:301.419   CPU_ReadMem(4 bytes @ 0xE000EDF0)
T23A0 000:303.629   CPU_WriteMem(4 bytes @ 0xE0002000)
T23A0 000:303.951   CPU_ReadMem(4 bytes @ 0xE000EDFC)
T23A0 000:304.284   CPU_ReadMem(4 bytes @ 0xE0001000)
T23A0 000:304.662 - 68.527ms
T23A0 000:304.685 JLINK_Halt()
T23A0 000:304.699 - 0.020ms returns 0x00
T23A0 000:304.715 JLINK_ReadMemU32(0xE000EDF0, 0x1 Items)
T23A0 000:304.734   CPU_ReadMem(4 bytes @ 0xE000EDF0)
T23A0 000:305.037   Data:  03 00 03 00
T23A0 000:305.058   Debug reg: DHCSR
T23A0 000:305.077 - 0.368ms returns 1 (0x1)
T23A0 000:305.094 JLINK_WriteU32_64(0xE000EDF0, 0xA05F0003)
T23A0 000:305.110   Debug reg: DHCSR
T23A0 000:305.320   CPU_WriteMem(4 bytes @ 0xE000EDF0)
T23A0 000:305.683 - 0.602ms returns 0 (0x00000000)
T23A0 000:305.711 JLINK_WriteU32_64(0xE000EDFC, 0x01000000)
T23A0 000:305.725   Debug reg: DEMCR
T23A0 000:305.750   CPU_WriteMem(4 bytes @ 0xE000EDFC)
T23A0 000:306.045 - 0.343ms returns 0 (0x00000000)
T23A0 000:320.650 JLINK_GetHWStatus(...)
T23A0 000:320.975 - 0.331ms returns 0
T23A0 000:332.737 JLINK_GetNumBPUnits(Type = 0xFFFFFF00)
T23A0 000:332.760 - 0.028ms returns 0x06
T23A0 000:332.772 JLINK_GetNumBPUnits(Type = 0xF0)
T23A0 000:332.783 - 0.016ms returns 0x2000
T23A0 000:332.794 JLINK_GetNumWPUnits()
T23A0 000:332.804 - 0.015ms returns 4
T23A0 000:344.085 JLINK_GetSpeed()
T23A0 000:344.106 - 0.026ms returns 4000
T23A0 000:348.355 JLINK_ReadMemU32(0xE000E004, 0x1 Items)
T23A0 000:348.386   CPU_ReadMem(4 bytes @ 0xE000E004)
T23A0 000:348.716   Data:  02 00 00 00
T23A0 000:348.743 - 0.394ms returns 1 (0x1)
T23A0 000:348.759 JLINK_ReadMemU32(0xE000E004, 0x1 Items)
T23A0 000:348.777   CPU_ReadMem(4 bytes @ 0xE000E004)
T23A0 000:349.053   Data:  02 00 00 00
T23A0 000:349.080 - 0.327ms returns 1 (0x1)
T23A0 000:349.096 JLINK_WriteMemEx(0xE0001000, 0x0000001C Bytes, Flags = 0x02000004)
T23A0 000:349.110   Data:  01 00 00 00 00 00 00 00 00 00 00 00 00 00 00 00 ...
T23A0 000:349.137   CPU_WriteMem(28 bytes @ 0xE0001000)
T23A0 000:349.547 - 0.463ms returns 0x1C
T23A0 000:349.573 JLINK_Halt()
T23A0 000:349.587 - 0.020ms returns 0x00
T23A0 000:349.601 JLINK_IsHalted()
T23A0 000:349.615 - 0.020ms returns TRUE
T23A0 000:351.624 JLINK_WriteMem(0x20000000, 0x13C Bytes, ...)
T23A0 000:351.639   Data:  00 BE 0A E0 0D 78 2D 06 68 40 08 24 40 00 00 D3 ...
T23A0 000:351.832   CPU_WriteMem(316 bytes @ 0x20000000)
T23A0 000:353.323 - 1.717ms returns 0x13C
T23A0 000:353.387 JLINK_HasError()
T23A0 000:353.414 JLINK_WriteReg(R0, 0x08000000)
T23A0 000:353.437 - 0.032ms returns 0
T23A0 000:353.457 JLINK_WriteReg(R1, 0x017D7840)
T23A0 000:353.477 - 0.029ms returns 0
T23A0 000:353.497 JLINK_WriteReg(R2, 0x00000001)
T23A0 000:353.516 - 0.028ms returns 0
T23A0 000:353.535 JLINK_WriteReg(R3, 0x00000000)
T23A0 000:353.554 - 0.027ms returns 0
T23A0 000:353.573 JLINK_WriteReg(R4, 0x00000000)
T23A0 000:353.591 - 0.027ms returns 0
T23A0 000:353.611 JLINK_WriteReg(R5, 0x00000000)
T23A0 000:353.629 - 0.027ms returns 0
T23A0 000:353.649 JLINK_WriteReg(R6, 0x00000000)
T23A0 000:353.667 - 0.027ms returns 0
T23A0 000:353.686 JLINK_WriteReg(R7, 0x00000000)
T23A0 000:353.705 - 0.027ms returns 0
T23A0 000:353.724 JLINK_WriteReg(R8, 0x00000000)
T23A0 000:353.758 - 0.044ms returns 0
T23A0 000:353.782 JLINK_WriteReg(R9, 0x20000134)
T23A0 000:353.801 - 0.028ms returns 0
T23A0 000:353.820 JLINK_WriteReg(R10, 0x00000000)
T23A0 000:353.839 - 0.027ms returns 0
T23A0 000:353.858 JLINK_WriteReg(R11, 0x00000000)
T23A0 000:353.877 - 0.027ms returns 0
T23A0 000:353.896 JLINK_WriteReg(R12, 0x00000000)
T23A0 000:353.915 - 0.027ms returns 0
T23A0 000:353.934 JLINK_WriteReg(R13 (SP), 0x20000800)
T23A0 000:353.953 - 0.028ms returns 0
T23A0 000:353.973 JLINK_WriteReg(R14, 0x20000001)
T23A0 000:353.995 - 0.033ms returns 0
T23A0 000:354.017 JLINK_WriteReg(R15 (PC), 0x20000038)
T23A0 000:354.043 - 0.035ms returns 0
T23A0 000:354.062 JLINK_WriteReg(XPSR, 0x01000000)
T23A0 000:354.081 - 0.028ms returns 0
T23A0 000:354.101 JLINK_WriteReg(MSP, 0x20000800)
T23A0 000:354.119 - 0.027ms returns 0
T23A0 000:354.139 JLINK_WriteReg(PSP, 0x20000800)
T23A0 000:354.157 - 0.027ms returns 0
T23A0 000:354.177 JLINK_WriteReg(CFBP, 0x00000000)
T23A0 000:354.195 - 0.027ms returns 0
T23A0 000:354.215 JLINK_SetBPEx(Addr = 0x20000000, Type = 0xFFFFFFF2)
T23A0 000:354.238   CPU_ReadMem(2 bytes @ 0x20000000)
T23A0 000:354.572 - 0.363ms returns 0x00000001
T23A0 000:354.586 JLINK_Go()
T23A0 000:354.598   CPU_WriteMem(2 bytes @ 0x20000000)
T23A0 000:354.929   CPU_ReadMem(4 bytes @ 0xE0001000)
T23A0 000:355.311   CPU_WriteMem(4 bytes @ 0xE0002008)
T23A0 000:355.337   CPU_WriteMem(4 bytes @ 0xE000200C)
T23A0 000:355.357   CPU_WriteMem(4 bytes @ 0xE0002010)
T23A0 000:355.377   CPU_WriteMem(4 bytes @ 0xE0002014)
T23A0 000:355.396   CPU_WriteMem(4 bytes @ 0xE0002018)
T23A0 000:355.415   CPU_WriteMem(4 bytes @ 0xE000201C)
T23A0 000:356.414   CPU_WriteMem(4 bytes @ 0xE0001004)
T23A0 000:358.651 - 4.074ms
T23A0 000:358.671 JLINK_IsHalted()
T23A0 000:360.657   CPU_ReadMem(2 bytes @ 0x20000000)
T23A0 000:361.045 - 2.384ms returns TRUE
T23A0 000:361.071 JLINK_ReadReg(R15 (PC))
T23A0 000:361.092 - 0.030ms returns 0x20000000
T23A0 000:361.114 JLINK_ClrBPEx(BPHandle = 0x00000001)
T23A0 000:361.133 - 0.028ms returns 0x00
T23A0 000:361.159 JLINK_ReadReg(R0)
T23A0 000:361.178 - 0.027ms returns 0x00000000
T23A0 000:361.549 JLINK_HasError()
T23A0 000:361.582 JLINK_WriteReg(R0, 0x08000000)
T23A0 000:361.604 - 0.031ms returns 0
T23A0 000:361.624 JLINK_WriteReg(R1, 0x017D7840)
T23A0 000:361.645 - 0.030ms returns 0
T23A0 000:361.664 JLINK_WriteReg(R2, 0x00000001)
T23A0 000:361.683 - 0.027ms returns 0
T23A0 000:361.702 JLINK_WriteReg(R3, 0x00000000)
T23A0 000:361.721 - 0.027ms returns 0
T23A0 000:361.740 JLINK_WriteReg(R4, 0x00000000)
T23A0 000:361.759 - 0.027ms returns 0
T23A0 000:361.778 JLINK_WriteReg(R5, 0x00000000)
T23A0 000:361.797 - 0.027ms returns 0
T23A0 000:361.816 JLINK_WriteReg(R6, 0x00000000)
T23A0 000:361.834 - 0.027ms returns 0
T23A0 000:361.854 JLINK_WriteReg(R7, 0x00000000)
T23A0 000:361.872 - 0.027ms returns 0
T23A0 000:361.891 JLINK_WriteReg(R8, 0x00000000)
T23A0 000:361.910 - 0.027ms returns 0
T23A0 000:361.929 JLINK_WriteReg(R9, 0x20000134)
T23A0 000:361.947 - 0.027ms returns 0
T23A0 000:361.966 JLINK_WriteReg(R10, 0x00000000)
T23A0 000:361.985 - 0.027ms returns 0
T23A0 000:362.004 JLINK_WriteReg(R11, 0x00000000)
T23A0 000:362.023 - 0.027ms returns 0
T23A0 000:362.042 JLINK_WriteReg(R12, 0x00000000)
T23A0 000:362.061 - 0.027ms returns 0
T23A0 000:362.080 JLINK_WriteReg(R13 (SP), 0x20000800)
T23A0 000:362.099 - 0.028ms returns 0
T23A0 000:362.118 JLINK_WriteReg(R14, 0x20000001)
T23A0 000:362.137 - 0.027ms returns 0
T23A0 000:362.156 JLINK_WriteReg(R15 (PC), 0x2000007A)
T23A0 000:362.175 - 0.027ms returns 0
T23A0 000:362.194 JLINK_WriteReg(XPSR, 0x01000000)
T23A0 000:362.213 - 0.026ms returns 0
T23A0 000:362.227 JLINK_WriteReg(MSP, 0x20000800)
T23A0 000:362.238 - 0.016ms returns 0
T23A0 000:362.249 JLINK_WriteReg(PSP, 0x20000800)
T23A0 000:362.260 - 0.016ms returns 0
T23A0 000:362.271 JLINK_WriteReg(CFBP, 0x00000000)
T23A0 000:362.283 - 0.016ms returns 0
T23A0 000:362.294 JLINK_SetBPEx(Addr = 0x20000000, Type = 0xFFFFFFF2)
T23A0 000:362.305 - 0.016ms returns 0x00000002
T23A0 000:362.317 JLINK_Go()
T23A0 000:362.332   CPU_ReadMem(4 bytes @ 0xE0001000)
T23A0 000:364.516 - 2.212ms
T23A0 000:364.542 JLINK_IsHalted()
T23A0 000:364.985 - 0.457ms returns FALSE
T23A0 000:365.011 JLINK_HasError()
T23A0 000:385.192 JLINK_IsHalted()
T23A0 000:387.250   CPU_ReadMem(2 bytes @ 0x20000000)
T23A0 000:387.550 - 2.366ms returns TRUE
T23A0 000:387.571 JLINK_ReadReg(R15 (PC))
T23A0 000:387.587 - 0.022ms returns 0x20000000
T23A0 000:387.604 JLINK_ClrBPEx(BPHandle = 0x00000002)
T23A0 000:387.676 - 0.082ms returns 0x00
T23A0 000:387.696 JLINK_ReadReg(R0)
T23A0 000:387.710 - 0.020ms returns 0x00000000
T23A0 000:438.930 JLINK_HasError()
T23A0 000:438.969 JLINK_WriteReg(R0, 0x00000001)
T23A0 000:438.988 - 0.025ms returns 0
T23A0 000:439.003 JLINK_WriteReg(R1, 0x017D7840)
T23A0 000:439.017 - 0.021ms returns 0
T23A0 000:439.031 JLINK_WriteReg(R2, 0x00000001)
T23A0 000:439.045 - 0.020ms returns 0
T23A0 000:439.059 JLINK_WriteReg(R3, 0x00000000)
T23A0 000:439.073 - 0.020ms returns 0
T23A0 000:439.087 JLINK_WriteReg(R4, 0x00000000)
T23A0 000:439.100 - 0.020ms returns 0
T23A0 000:439.114 JLINK_WriteReg(R5, 0x00000000)
T23A0 000:439.128 - 0.020ms returns 0
T23A0 000:439.142 JLINK_WriteReg(R6, 0x00000000)
T23A0 000:439.155 - 0.020ms returns 0
T23A0 000:439.169 JLINK_WriteReg(R7, 0x00000000)
T23A0 000:439.183 - 0.024ms returns 0
T23A0 000:439.201 JLINK_WriteReg(R8, 0x00000000)
T23A0 000:439.214 - 0.020ms returns 0
T23A0 000:439.228 JLINK_WriteReg(R9, 0x20000134)
T23A0 000:439.242 - 0.020ms returns 0
T23A0 000:439.256 JLINK_WriteReg(R10, 0x00000000)
T23A0 000:439.275 - 0.026ms returns 0
T23A0 000:439.290 JLINK_WriteReg(R11, 0x00000000)
T23A0 000:439.303 - 0.020ms returns 0
T23A0 000:439.316 JLINK_WriteReg(R12, 0x00000000)
T23A0 000:439.327 - 0.016ms returns 0
T23A0 000:439.338 JLINK_WriteReg(R13 (SP), 0x20000800)
T23A0 000:439.350 - 0.017ms returns 0
T23A0 000:439.361 JLINK_WriteReg(R14, 0x20000001)
T23A0 000:439.372 - 0.016ms returns 0
T23A0 000:439.383 JLINK_WriteReg(R15 (PC), 0x2000006C)
T23A0 000:439.406 - 0.028ms returns 0
T23A0 000:439.417 JLINK_WriteReg(XPSR, 0x01000000)
T23A0 000:439.428 - 0.016ms returns 0
T23A0 000:439.439 JLINK_WriteReg(MSP, 0x20000800)
T23A0 000:439.450 - 0.015ms returns 0
T23A0 000:439.461 JLINK_WriteReg(PSP, 0x20000800)
T23A0 000:439.472 - 0.015ms returns 0
T23A0 000:439.483 JLINK_WriteReg(CFBP, 0x00000000)
T23A0 000:439.494 - 0.016ms returns 0
T23A0 000:439.507 JLINK_SetBPEx(Addr = 0x20000000, Type = 0xFFFFFFF2)
T23A0 000:439.519 - 0.017ms returns 0x00000003
T23A0 000:439.530 JLINK_Go()
T23A0 000:439.549   CPU_ReadMem(4 bytes @ 0xE0001000)
T23A0 000:441.870 - 2.353ms
T23A0 000:441.893 JLINK_IsHalted()
T23A0 000:443.877   CPU_ReadMem(2 bytes @ 0x20000000)
T23A0 000:444.175 - 2.288ms returns TRUE
T23A0 000:444.191 JLINK_ReadReg(R15 (PC))
T23A0 000:444.204 - 0.018ms returns 0x20000000
T23A0 000:444.216 JLINK_ClrBPEx(BPHandle = 0x00000003)
T23A0 000:444.227 - 0.016ms returns 0x00
T23A0 000:444.238 JLINK_ReadReg(R0)
T23A0 000:444.249 - 0.016ms returns 0x00000000
T23A0 000:448.573 JLINK_WriteMem(0x20000000, 0x13C Bytes, ...)
T23A0 000:448.590   Data:  00 BE 0A E0 0D 78 2D 06 68 40 08 24 40 00 00 D3 ...
T23A0 000:448.614   CPU_WriteMem(316 bytes @ 0x20000000)
T23A0 000:449.999 - 1.433ms returns 0x13C
T23A0 000:450.026 JLINK_HasError()
T23A0 000:450.050 JLINK_WriteReg(R0, 0x08000000)
T23A0 000:450.062 - 0.017ms returns 0
T23A0 000:450.074 JLINK_WriteReg(R1, 0x017D7840)
T23A0 000:450.085 - 0.016ms returns 0
T23A0 000:450.096 JLINK_WriteReg(R2, 0x00000002)
T23A0 000:450.107 - 0.016ms returns 0
T23A0 000:450.118 JLINK_WriteReg(R3, 0x00000000)
T23A0 000:450.129 - 0.016ms returns 0
T23A0 000:450.140 JLINK_WriteReg(R4, 0x00000000)
T23A0 000:450.151 - 0.016ms returns 0
T23A0 000:450.162 JLINK_WriteReg(R5, 0x00000000)
T23A0 000:450.173 - 0.016ms returns 0
T23A0 000:450.184 JLINK_WriteReg(R6, 0x00000000)
T23A0 000:450.205 - 0.026ms returns 0
T23A0 000:450.217 JLINK_WriteReg(R7, 0x00000000)
T23A0 000:450.227 - 0.016ms returns 0
T23A0 000:450.239 JLINK_WriteReg(R8, 0x00000000)
T23A0 000:450.249 - 0.016ms returns 0
T23A0 000:450.260 JLINK_WriteReg(R9, 0x20000134)
T23A0 000:450.271 - 0.016ms returns 0
T23A0 000:450.282 JLINK_WriteReg(R10, 0x00000000)
T23A0 000:450.293 - 0.016ms returns 0
T23A0 000:450.304 JLINK_WriteReg(R11, 0x00000000)
T23A0 000:450.315 - 0.023ms returns 0
T23A0 000:450.337 JLINK_WriteReg(R12, 0x00000000)
T23A0 000:450.351 - 0.020ms returns 0
T23A0 000:450.365 JLINK_WriteReg(R13 (SP), 0x20000800)
T23A0 000:450.382 - 0.110ms returns 0
T23A0 000:450.483 JLINK_WriteReg(R14, 0x20000001)
T23A0 000:450.496 - 0.020ms returns 0
T23A0 000:450.511 JLINK_WriteReg(R15 (PC), 0x20000038)
T23A0 000:450.524 - 0.020ms returns 0
T23A0 000:450.547 JLINK_WriteReg(XPSR, 0x01000000)
T23A0 000:450.560 - 0.020ms returns 0
T23A0 000:450.574 JLINK_WriteReg(MSP, 0x20000800)
T23A0 000:450.588 - 0.020ms returns 0
T23A0 000:450.601 JLINK_WriteReg(PSP, 0x20000800)
T23A0 000:450.615 - 0.020ms returns 0
T23A0 000:450.629 JLINK_WriteReg(CFBP, 0x00000000)
T23A0 000:450.642 - 0.019ms returns 0
T23A0 000:450.656 JLINK_SetBPEx(Addr = 0x20000000, Type = 0xFFFFFFF2)
T23A0 000:450.673   CPU_ReadMem(2 bytes @ 0x20000000)
T23A0 000:451.045 - 0.397ms returns 0x00000004
T23A0 000:451.062 JLINK_Go()
T23A0 000:451.078   CPU_WriteMem(2 bytes @ 0x20000000)
T23A0 000:451.430   CPU_ReadMem(4 bytes @ 0xE0001000)
T23A0 000:453.729 - 2.677ms
T23A0 000:453.749 JLINK_IsHalted()
T23A0 000:455.678   CPU_ReadMem(2 bytes @ 0x20000000)
T23A0 000:456.044 - 2.303ms returns TRUE
T23A0 000:456.061 JLINK_ReadReg(R15 (PC))
T23A0 000:456.081 - 0.026ms returns 0x20000000
T23A0 000:456.095 JLINK_ClrBPEx(BPHandle = 0x00000004)
T23A0 000:456.109 - 0.020ms returns 0x00
T23A0 000:456.123 JLINK_ReadReg(R0)
T23A0 000:456.147 - 0.030ms returns 0x00000000
T23A0 000:456.413 JLINK_WriteMem(0x2000013C, 0x2C4 Bytes, ...)
T23A0 000:456.431   Data:  E8 14 00 20 65 01 00 08 45 08 00 08 35 08 00 08 ...
T23A0 000:456.457   CPU_WriteMem(708 bytes @ 0x2000013C)
T23A0 000:458.988 - 2.590ms returns 0x2C4
T23A0 000:459.013 JLINK_WriteMem(0x20000400, 0x13C Bytes, ...)
T23A0 000:459.027   Data:  64 EB 01 01 14 1E 73 F1 00 04 05 DB 1C 46 4F F0 ...
T23A0 000:459.056   CPU_WriteMem(316 bytes @ 0x20000400)
T23A0 000:460.497 - 1.490ms returns 0x13C
T23A0 000:460.512 JLINK_HasError()
T23A0 000:460.523 JLINK_WriteReg(R0, 0x08000000)
T23A0 000:460.535 - 0.017ms returns 0
T23A0 000:460.547 JLINK_WriteReg(R1, 0x00000400)
T23A0 000:460.558 - 0.016ms returns 0
T23A0 000:460.569 JLINK_WriteReg(R2, 0x2000013C)
T23A0 000:460.579 - 0.016ms returns 0
T23A0 000:460.591 JLINK_WriteReg(R3, 0x00000000)
T23A0 000:460.601 - 0.015ms returns 0
T23A0 000:460.612 JLINK_WriteReg(R4, 0x00000000)
T23A0 000:460.623 - 0.016ms returns 0
T23A0 000:460.634 JLINK_WriteReg(R5, 0x00000000)
T23A0 000:460.645 - 0.015ms returns 0
T23A0 000:460.656 JLINK_WriteReg(R6, 0x00000000)
T23A0 000:460.666 - 0.016ms returns 0
T23A0 000:460.677 JLINK_WriteReg(R7, 0x00000000)
T23A0 000:460.688 - 0.016ms returns 0
T23A0 000:460.699 JLINK_WriteReg(R8, 0x00000000)
T23A0 000:460.710 - 0.016ms returns 0
T23A0 000:460.721 JLINK_WriteReg(R9, 0x20000134)
T23A0 000:460.732 - 0.015ms returns 0
T23A0 000:460.743 JLINK_WriteReg(R10, 0x00000000)
T23A0 000:460.754 - 0.016ms returns 0
T23A0 000:460.765 JLINK_WriteReg(R11, 0x00000000)
T23A0 000:460.775 - 0.016ms returns 0
T23A0 000:460.786 JLINK_WriteReg(R12, 0x00000000)
T23A0 000:460.797 - 0.016ms returns 0
T23A0 000:460.808 JLINK_WriteReg(R13 (SP), 0x20000800)
T23A0 000:460.819 - 0.016ms returns 0
T23A0 000:460.830 JLINK_WriteReg(R14, 0x20000001)
T23A0 000:460.841 - 0.016ms returns 0
T23A0 000:460.852 JLINK_WriteReg(R15 (PC), 0x200000D8)
T23A0 000:460.863 - 0.016ms returns 0
T23A0 000:460.874 JLINK_WriteReg(XPSR, 0x01000000)
T23A0 000:460.885 - 0.016ms returns 0
T23A0 000:460.896 JLINK_WriteReg(MSP, 0x20000800)
T23A0 000:460.907 - 0.016ms returns 0
T23A0 000:460.918 JLINK_WriteReg(PSP, 0x20000800)
T23A0 000:460.929 - 0.015ms returns 0
T23A0 000:460.940 JLINK_WriteReg(CFBP, 0x00000000)
T23A0 000:460.950 - 0.016ms returns 0
T23A0 000:460.962 JLINK_SetBPEx(Addr = 0x20000000, Type = 0xFFFFFFF2)
T23A0 000:460.973 - 0.016ms returns 0x00000005
T23A0 000:460.984 JLINK_Go()
T23A0 000:460.999   CPU_ReadMem(4 bytes @ 0xE0001000)
T23A0 000:463.120 - 2.145ms
T23A0 000:463.138 JLINK_IsHalted()
T23A0 000:463.417 - 0.292ms returns FALSE
T23A0 000:463.443 JLINK_HasError()
T23A0 000:466.194 JLINK_IsHalted()
T23A0 000:466.549 - 0.367ms returns FALSE
T23A0 000:466.572 JLINK_HasError()
T23A0 000:468.197 JLINK_IsHalted()
T23A0 000:468.542 - 0.356ms returns FALSE
T23A0 000:468.563 JLINK_HasError()
T23A0 000:470.191 JLINK_IsHalted()
T23A0 000:470.493 - 0.309ms returns FALSE
T23A0 000:470.509 JLINK_HasError()
T23A0 000:472.194 JLINK_IsHalted()
T23A0 000:472.541 - 0.355ms returns FALSE
T23A0 000:472.557 JLINK_HasError()
T23A0 000:475.194 JLINK_IsHalted()
T23A0 000:475.541 - 0.353ms returns FALSE
T23A0 000:475.555 JLINK_HasError()
T23A0 000:477.197 JLINK_IsHalted()
T23A0 000:479.200   CPU_ReadMem(2 bytes @ 0x20000000)
T23A0 000:479.547 - 2.360ms returns TRUE
T23A0 000:479.573 JLINK_ReadReg(R15 (PC))
T23A0 000:479.589 - 0.022ms returns 0x20000000
T23A0 000:479.603 JLINK_ClrBPEx(BPHandle = 0x00000005)
T23A0 000:479.617 - 0.020ms returns 0x00
T23A0 000:479.631 JLINK_ReadReg(R0)
T23A0 000:479.645 - 0.020ms returns 0x00000000
T23A0 000:480.060 JLINK_WriteMem(0x2000013C, 0x2C4 Bytes, ...)
T23A0 000:480.078   Data:  08 43 13 D0 11 46 53 EA 01 00 19 D0 C8 F1 40 02 ...
T23A0 000:480.104   CPU_WriteMem(708 bytes @ 0x2000013C)
T23A0 000:482.657 - 2.607ms returns 0x2C4
T23A0 000:482.782 JLINK_WriteMem(0x20000400, 0x13C Bytes, ...)
T23A0 000:482.796   Data:  83 EA 05 01 08 43 05 D0 10 1B AB 41 06 D2 01 22 ...
T23A0 000:482.819   CPU_WriteMem(316 bytes @ 0x20000400)
T23A0 000:484.279 - 1.504ms returns 0x13C
T23A0 000:484.293 JLINK_HasError()
T23A0 000:484.305 JLINK_WriteReg(R0, 0x08000400)
T23A0 000:484.317 - 0.017ms returns 0
T23A0 000:484.329 JLINK_WriteReg(R1, 0x00000400)
T23A0 000:484.339 - 0.016ms returns 0
T23A0 000:484.351 JLINK_WriteReg(R2, 0x2000013C)
T23A0 000:484.361 - 0.016ms returns 0
T23A0 000:484.373 JLINK_WriteReg(R3, 0x00000000)
T23A0 000:484.383 - 0.015ms returns 0
T23A0 000:484.394 JLINK_WriteReg(R4, 0x00000000)
T23A0 000:484.406 - 0.025ms returns 0
T23A0 000:484.427 JLINK_WriteReg(R5, 0x00000000)
T23A0 000:484.440 - 0.019ms returns 0
T23A0 000:484.454 JLINK_WriteReg(R6, 0x00000000)
T23A0 000:484.467 - 0.020ms returns 0
T23A0 000:484.481 JLINK_WriteReg(R7, 0x00000000)
T23A0 000:484.495 - 0.020ms returns 0
T23A0 000:484.508 JLINK_WriteReg(R8, 0x00000000)
T23A0 000:484.522 - 0.027ms returns 0
T23A0 000:484.546 JLINK_WriteReg(R9, 0x20000134)
T23A0 000:484.559 - 0.020ms returns 0
T23A0 000:484.573 JLINK_WriteReg(R10, 0x00000000)
T23A0 000:484.586 - 0.026ms returns 0
T23A0 000:484.606 JLINK_WriteReg(R11, 0x00000000)
T23A0 000:484.620 - 0.020ms returns 0
T23A0 000:484.634 JLINK_WriteReg(R12, 0x00000000)
T23A0 000:484.647 - 0.019ms returns 0
T23A0 000:484.668 JLINK_WriteReg(R13 (SP), 0x20000800)
T23A0 000:484.682 - 0.020ms returns 0
T23A0 000:484.695 JLINK_WriteReg(R14, 0x20000001)
T23A0 000:484.709 - 0.019ms returns 0
T23A0 000:484.722 JLINK_WriteReg(R15 (PC), 0x200000D8)
T23A0 000:484.736 - 0.019ms returns 0
T23A0 000:484.750 JLINK_WriteReg(XPSR, 0x01000000)
T23A0 000:484.763 - 0.019ms returns 0
T23A0 000:484.777 JLINK_WriteReg(MSP, 0x20000800)
T23A0 000:484.790 - 0.019ms returns 0
T23A0 000:484.811 JLINK_WriteReg(PSP, 0x20000800)
T23A0 000:484.825 - 0.019ms returns 0
T23A0 000:484.839 JLINK_WriteReg(CFBP, 0x00000000)
T23A0 000:484.852 - 0.019ms returns 0
T23A0 000:484.866 JLINK_SetBPEx(Addr = 0x20000000, Type = 0xFFFFFFF2)
T23A0 000:484.880 - 0.020ms returns 0x00000006
T23A0 000:484.894 JLINK_Go()
T23A0 000:484.912   CPU_ReadMem(4 bytes @ 0xE0001000)
T23A0 000:487.122 - 2.236ms
T23A0 000:487.139 JLINK_IsHalted()
T23A0 000:487.439 - 0.311ms returns FALSE
T23A0 000:487.470 JLINK_HasError()
T23A0 000:490.193 JLINK_IsHalted()
T23A0 000:490.533 - 0.347ms returns FALSE
T23A0 000:490.547 JLINK_HasError()
T23A0 000:492.191 JLINK_IsHalted()
T23A0 000:492.542 - 0.358ms returns FALSE
T23A0 000:492.559 JLINK_HasError()
T23A0 000:494.191 JLINK_IsHalted()
T23A0 000:494.541 - 0.357ms returns FALSE
T23A0 000:494.557 JLINK_HasError()
T23A0 000:496.192 JLINK_IsHalted()
T23A0 000:496.533 - 0.349ms returns FALSE
T23A0 000:496.550 JLINK_HasError()
T23A0 000:499.187 JLINK_IsHalted()
T23A0 000:499.550 - 0.371ms returns FALSE
T23A0 000:499.566 JLINK_HasError()
T23A0 000:501.187 JLINK_IsHalted()
T23A0 000:503.211   CPU_ReadMem(2 bytes @ 0x20000000)
T23A0 000:503.559 - 2.384ms returns TRUE
T23A0 000:503.583 JLINK_ReadReg(R15 (PC))
T23A0 000:503.605 - 0.031ms returns 0x20000000
T23A0 000:503.625 JLINK_ClrBPEx(BPHandle = 0x00000006)
T23A0 000:503.644 - 0.028ms returns 0x00
T23A0 000:503.664 JLINK_ReadReg(R0)
T23A0 000:503.683 - 0.028ms returns 0x00000000
T23A0 000:504.252 JLINK_WriteMem(0x2000013C, 0x2C4 Bytes, ...)
T23A0 000:504.279   Data:  E1 78 40 1A B0 FA 80 F0 40 09 10 BD 80 B5 00 F0 ...
T23A0 000:504.314   CPU_WriteMem(708 bytes @ 0x2000013C)
T23A0 000:506.955 - 2.716ms returns 0x2C4
T23A0 000:506.981 JLINK_WriteMem(0x20000400, 0x13C Bytes, ...)
T23A0 000:507.001   Data:  81 F3 5B 09 00 29 18 BF 01 21 09 E0 13 78 B3 FA ...
T23A0 000:507.033   CPU_WriteMem(316 bytes @ 0x20000400)
T23A0 000:508.515 - 1.546ms returns 0x13C
T23A0 000:508.540 JLINK_HasError()
T23A0 000:508.561 JLINK_WriteReg(R0, 0x08000800)
T23A0 000:508.582 - 0.030ms returns 0
T23A0 000:508.602 JLINK_WriteReg(R1, 0x00000400)
T23A0 000:508.621 - 0.028ms returns 0
T23A0 000:508.641 JLINK_WriteReg(R2, 0x2000013C)
T23A0 000:508.659 - 0.027ms returns 0
T23A0 000:508.679 JLINK_WriteReg(R3, 0x00000000)
T23A0 000:508.697 - 0.027ms returns 0
T23A0 000:508.716 JLINK_WriteReg(R4, 0x00000000)
T23A0 000:508.735 - 0.028ms returns 0
T23A0 000:508.755 JLINK_WriteReg(R5, 0x00000000)
T23A0 000:508.773 - 0.027ms returns 0
T23A0 000:508.792 JLINK_WriteReg(R6, 0x00000000)
T23A0 000:508.811 - 0.027ms returns 0
T23A0 000:508.830 JLINK_WriteReg(R7, 0x00000000)
T23A0 000:508.849 - 0.027ms returns 0
T23A0 000:508.868 JLINK_WriteReg(R8, 0x00000000)
T23A0 000:508.886 - 0.027ms returns 0
T23A0 000:508.906 JLINK_WriteReg(R9, 0x20000134)
T23A0 000:508.924 - 0.027ms returns 0
T23A0 000:508.943 JLINK_WriteReg(R10, 0x00000000)
T23A0 000:508.962 - 0.027ms returns 0
T23A0 000:508.981 JLINK_WriteReg(R11, 0x00000000)
T23A0 000:509.000 - 0.027ms returns 0
T23A0 000:509.019 JLINK_WriteReg(R12, 0x00000000)
T23A0 000:509.038 - 0.027ms returns 0
T23A0 000:509.057 JLINK_WriteReg(R13 (SP), 0x20000800)
T23A0 000:509.076 - 0.028ms returns 0
T23A0 000:509.095 JLINK_WriteReg(R14, 0x20000001)
T23A0 000:509.114 - 0.027ms returns 0
T23A0 000:509.133 JLINK_WriteReg(R15 (PC), 0x200000D8)
T23A0 000:509.152 - 0.028ms returns 0
T23A0 000:509.171 JLINK_WriteReg(XPSR, 0x01000000)
T23A0 000:509.195 - 0.033ms returns 0
T23A0 000:509.215 JLINK_WriteReg(MSP, 0x20000800)
T23A0 000:509.233 - 0.027ms returns 0
T23A0 000:509.252 JLINK_WriteReg(PSP, 0x20000800)
T23A0 000:509.271 - 0.027ms returns 0
T23A0 000:509.290 JLINK_WriteReg(CFBP, 0x00000000)
T23A0 000:509.309 - 0.027ms returns 0
T23A0 000:509.328 JLINK_SetBPEx(Addr = 0x20000000, Type = 0xFFFFFFF2)
T23A0 000:509.348 - 0.028ms returns 0x00000007
T23A0 000:509.367 JLINK_Go()
T23A0 000:509.393   CPU_ReadMem(4 bytes @ 0xE0001000)
T23A0 000:511.536 - 2.182ms
T23A0 000:511.561 JLINK_IsHalted()
T23A0 000:511.954 - 0.403ms returns FALSE
T23A0 000:511.977 JLINK_HasError()
T23A0 000:514.187 JLINK_IsHalted()
T23A0 000:514.544 - 0.366ms returns FALSE
T23A0 000:514.563 JLINK_HasError()
T23A0 000:516.186 JLINK_IsHalted()
T23A0 000:516.538 - 0.363ms returns FALSE
T23A0 000:516.567 JLINK_HasError()
T23A0 000:518.196 JLINK_IsHalted()
T23A0 000:518.547 - 0.362ms returns FALSE
T23A0 000:518.570 JLINK_HasError()
T23A0 000:520.191 JLINK_IsHalted()
T23A0 000:520.565 - 0.385ms returns FALSE
T23A0 000:520.588 JLINK_HasError()
T23A0 000:523.187 JLINK_IsHalted()
T23A0 000:523.552 - 0.376ms returns FALSE
T23A0 000:523.576 JLINK_HasError()
T23A0 000:525.196 JLINK_IsHalted()
T23A0 000:527.209   CPU_ReadMem(2 bytes @ 0x20000000)
T23A0 000:527.475 - 2.290ms returns TRUE
T23A0 000:527.499 JLINK_ReadReg(R15 (PC))
T23A0 000:527.520 - 0.030ms returns 0x20000000
T23A0 000:527.540 JLINK_ClrBPEx(BPHandle = 0x00000007)
T23A0 000:527.563 - 0.032ms returns 0x00
T23A0 000:527.583 JLINK_ReadReg(R0)
T23A0 000:527.696 - 0.127ms returns 0x00000000
T23A0 000:528.312 JLINK_WriteMem(0x2000013C, 0x2C4 Bytes, ...)
T23A0 000:528.339   Data:  02 2A 1A D0 01 2A 46 D0 BA BB 90 F8 CE 10 02 29 ...
T23A0 000:528.375   CPU_WriteMem(708 bytes @ 0x2000013C)
T23A0 000:530.980 - 2.681ms returns 0x2C4
T23A0 000:531.005 JLINK_WriteMem(0x20000400, 0x13C Bytes, ...)
T23A0 000:531.025   Data:  0E 20 00 F0 6F FB 4F F4 80 30 CD E9 02 60 68 46 ...
T23A0 000:531.056   CPU_WriteMem(316 bytes @ 0x20000400)
T23A0 000:532.503 - 1.507ms returns 0x13C
T23A0 000:532.522 JLINK_HasError()
T23A0 000:532.536 JLINK_WriteReg(R0, 0x08000C00)
T23A0 000:532.551 - 0.021ms returns 0
T23A0 000:532.564 JLINK_WriteReg(R1, 0x00000400)
T23A0 000:532.577 - 0.019ms returns 0
T23A0 000:532.591 JLINK_WriteReg(R2, 0x2000013C)
T23A0 000:532.603 - 0.019ms returns 0
T23A0 000:532.617 JLINK_WriteReg(R3, 0x00000000)
T23A0 000:532.630 - 0.019ms returns 0
T23A0 000:532.643 JLINK_WriteReg(R4, 0x00000000)
T23A0 000:532.656 - 0.019ms returns 0
T23A0 000:532.669 JLINK_WriteReg(R5, 0x00000000)
T23A0 000:532.682 - 0.019ms returns 0
T23A0 000:532.695 JLINK_WriteReg(R6, 0x00000000)
T23A0 000:532.708 - 0.019ms returns 0
T23A0 000:532.721 JLINK_WriteReg(R7, 0x00000000)
T23A0 000:532.734 - 0.019ms returns 0
T23A0 000:532.747 JLINK_WriteReg(R8, 0x00000000)
T23A0 000:532.760 - 0.019ms returns 0
T23A0 000:532.773 JLINK_WriteReg(R9, 0x20000134)
T23A0 000:532.786 - 0.019ms returns 0
T23A0 000:532.799 JLINK_WriteReg(R10, 0x00000000)
T23A0 000:532.812 - 0.019ms returns 0
T23A0 000:532.825 JLINK_WriteReg(R11, 0x00000000)
T23A0 000:532.838 - 0.019ms returns 0
T23A0 000:532.851 JLINK_WriteReg(R12, 0x00000000)
T23A0 000:532.864 - 0.019ms returns 0
T23A0 000:532.877 JLINK_WriteReg(R13 (SP), 0x20000800)
T23A0 000:532.890 - 0.019ms returns 0
T23A0 000:532.904 JLINK_WriteReg(R14, 0x20000001)
T23A0 000:532.916 - 0.019ms returns 0
T23A0 000:532.930 JLINK_WriteReg(R15 (PC), 0x200000D8)
T23A0 000:532.943 - 0.019ms returns 0
T23A0 000:532.956 JLINK_WriteReg(XPSR, 0x01000000)
T23A0 000:532.969 - 0.019ms returns 0
T23A0 000:532.982 JLINK_WriteReg(MSP, 0x20000800)
T23A0 000:532.995 - 0.019ms returns 0
T23A0 000:533.008 JLINK_WriteReg(PSP, 0x20000800)
T23A0 000:533.021 - 0.019ms returns 0
T23A0 000:533.034 JLINK_WriteReg(CFBP, 0x00000000)
T23A0 000:533.047 - 0.019ms returns 0
T23A0 000:533.060 JLINK_SetBPEx(Addr = 0x20000000, Type = 0xFFFFFFF2)
T23A0 000:533.074 - 0.019ms returns 0x00000008
T23A0 000:533.087 JLINK_Go()
T23A0 000:533.105   CPU_ReadMem(4 bytes @ 0xE0001000)
T23A0 000:535.381 - 2.304ms
T23A0 000:535.402 JLINK_IsHalted()
T23A0 000:535.705 - 0.314ms returns FALSE
T23A0 000:535.728 JLINK_HasError()
T23A0 000:538.212 JLINK_IsHalted()
T23A0 000:538.520 - 0.318ms returns FALSE
T23A0 000:538.541 JLINK_HasError()
T23A0 000:540.186 JLINK_IsHalted()
T23A0 000:540.549 - 0.374ms returns FALSE
T23A0 000:540.572 JLINK_HasError()
T23A0 000:542.187 JLINK_IsHalted()
T23A0 000:542.545 - 0.367ms returns FALSE
T23A0 000:542.564 JLINK_HasError()
T23A0 000:545.187 JLINK_IsHalted()
T23A0 000:545.441 - 0.261ms returns FALSE
T23A0 000:545.457 JLINK_HasError()
T23A0 000:547.188 JLINK_IsHalted()
T23A0 000:547.548 - 0.371ms returns FALSE
T23A0 000:547.571 JLINK_HasError()
T23A0 000:549.191 JLINK_IsHalted()
T23A0 000:551.282   CPU_ReadMem(2 bytes @ 0x20000000)
T23A0 000:551.595 - 2.415ms returns TRUE
T23A0 000:551.619 JLINK_ReadReg(R15 (PC))
T23A0 000:551.641 - 0.031ms returns 0x20000000
T23A0 000:551.661 JLINK_ClrBPEx(BPHandle = 0x00000008)
T23A0 000:551.680 - 0.028ms returns 0x00
T23A0 000:551.699 JLINK_ReadReg(R0)
T23A0 000:551.718 - 0.027ms returns 0x00000000
T23A0 000:552.276 JLINK_WriteMem(0x2000013C, 0x2C4 Bytes, ...)
T23A0 000:552.302   Data:  10 60 48 68 0C F5 C2 71 19 43 08 60 20 68 40 F0 ...
T23A0 000:552.337   CPU_WriteMem(708 bytes @ 0x2000013C)
T23A0 000:554.951 - 2.688ms returns 0x2C4
T23A0 000:554.976 JLINK_WriteMem(0x20000400, 0x13C Bytes, ...)
T23A0 000:554.995   Data:  B0 BD 00 00 80 B5 86 B0 8D F8 04 00 40 F6 08 60 ...
T23A0 000:555.034   CPU_WriteMem(316 bytes @ 0x20000400)
T23A0 000:556.554 - 1.588ms returns 0x13C
T23A0 000:556.575 JLINK_HasError()
T23A0 000:556.593 JLINK_WriteReg(R0, 0x08001000)
T23A0 000:556.611 - 0.026ms returns 0
T23A0 000:556.628 JLINK_WriteReg(R1, 0x00000400)
T23A0 000:556.644 - 0.023ms returns 0
T23A0 000:556.660 JLINK_WriteReg(R2, 0x2000013C)
T23A0 000:556.677 - 0.024ms returns 0
T23A0 000:556.693 JLINK_WriteReg(R3, 0x00000000)
T23A0 000:556.709 - 0.023ms returns 0
T23A0 000:556.726 JLINK_WriteReg(R4, 0x00000000)
T23A0 000:556.742 - 0.023ms returns 0
T23A0 000:556.758 JLINK_WriteReg(R5, 0x00000000)
T23A0 000:556.775 - 0.024ms returns 0
T23A0 000:556.791 JLINK_WriteReg(R6, 0x00000000)
T23A0 000:556.807 - 0.023ms returns 0
T23A0 000:556.824 JLINK_WriteReg(R7, 0x00000000)
T23A0 000:556.839 - 0.023ms returns 0
T23A0 000:556.856 JLINK_WriteReg(R8, 0x00000000)
T23A0 000:556.872 - 0.023ms returns 0
T23A0 000:556.888 JLINK_WriteReg(R9, 0x20000134)
T23A0 000:556.904 - 0.023ms returns 0
T23A0 000:556.921 JLINK_WriteReg(R10, 0x00000000)
T23A0 000:556.937 - 0.023ms returns 0
T23A0 000:556.953 JLINK_WriteReg(R11, 0x00000000)
T23A0 000:556.969 - 0.023ms returns 0
T23A0 000:556.986 JLINK_WriteReg(R12, 0x00000000)
T23A0 000:557.001 - 0.023ms returns 0
T23A0 000:557.018 JLINK_WriteReg(R13 (SP), 0x20000800)
T23A0 000:557.034 - 0.024ms returns 0
T23A0 000:557.051 JLINK_WriteReg(R14, 0x20000001)
T23A0 000:557.067 - 0.023ms returns 0
T23A0 000:557.083 JLINK_WriteReg(R15 (PC), 0x200000D8)
T23A0 000:557.099 - 0.023ms returns 0
T23A0 000:557.116 JLINK_WriteReg(XPSR, 0x01000000)
T23A0 000:557.132 - 0.023ms returns 0
T23A0 000:557.148 JLINK_WriteReg(MSP, 0x20000800)
T23A0 000:557.164 - 0.024ms returns 0
T23A0 000:557.181 JLINK_WriteReg(PSP, 0x20000800)
T23A0 000:557.197 - 0.023ms returns 0
T23A0 000:557.213 JLINK_WriteReg(CFBP, 0x00000000)
T23A0 000:557.229 - 0.023ms returns 0
T23A0 000:557.246 JLINK_SetBPEx(Addr = 0x20000000, Type = 0xFFFFFFF2)
T23A0 000:557.263 - 0.024ms returns 0x00000009
T23A0 000:557.280 JLINK_Go()
T23A0 000:557.302   CPU_ReadMem(4 bytes @ 0xE0001000)
T23A0 000:559.631 - 2.364ms
T23A0 000:559.656 JLINK_IsHalted()
T23A0 000:559.964 - 0.319ms returns FALSE
T23A0 000:559.987 JLINK_HasError()
T23A0 000:562.444 JLINK_IsHalted()
T23A0 000:562.824 - 0.390ms returns FALSE
T23A0 000:562.845 JLINK_HasError()
T23A0 000:564.439 JLINK_IsHalted()
T23A0 000:564.834 - 0.406ms returns FALSE
T23A0 000:564.857 JLINK_HasError()
T23A0 000:566.443 JLINK_IsHalted()
T23A0 000:566.795 - 0.361ms returns FALSE
T23A0 000:566.818 JLINK_HasError()
T23A0 000:569.441 JLINK_IsHalted()
T23A0 000:569.819 - 0.391ms returns FALSE
T23A0 000:569.845 JLINK_HasError()
T23A0 000:571.438 JLINK_IsHalted()
T23A0 000:571.807 - 0.380ms returns FALSE
T23A0 000:571.830 JLINK_HasError()
T23A0 000:573.446 JLINK_IsHalted()
T23A0 000:575.525   CPU_ReadMem(2 bytes @ 0x20000000)
T23A0 000:575.806 - 2.371ms returns TRUE
T23A0 000:575.829 JLINK_ReadReg(R15 (PC))
T23A0 000:575.850 - 0.030ms returns 0x20000000
T23A0 000:575.870 JLINK_ClrBPEx(BPHandle = 0x00000009)
T23A0 000:575.889 - 0.028ms returns 0x00
T23A0 000:575.909 JLINK_ReadReg(R0)
T23A0 000:575.928 - 0.027ms returns 0x00000000
T23A0 000:576.465 JLINK_WriteMem(0x2000013C, 0x2C4 Bytes, ...)
T23A0 000:576.492   Data:  B0 B5 4E F2 18 0E 40 F2 04 01 CE F2 00 0E C2 F2 ...
T23A0 000:576.526   CPU_WriteMem(708 bytes @ 0x2000013C)
T23A0 000:579.191 - 2.737ms returns 0x2C4
T23A0 000:579.215 JLINK_WriteMem(0x20000400, 0x13C Bytes, ...)
T23A0 000:579.234   Data:  FF 7C 42 F0 01 02 63 46 02 60 00 BF 42 68 23 B1 ...
T23A0 000:579.265   CPU_WriteMem(316 bytes @ 0x20000400)
T23A0 000:580.627 - 1.423ms returns 0x13C
T23A0 000:580.647 JLINK_HasError()
T23A0 000:580.662 JLINK_WriteReg(R0, 0x08001400)
T23A0 000:580.676 - 0.020ms returns 0
T23A0 000:580.690 JLINK_WriteReg(R1, 0x00000400)
T23A0 000:580.702 - 0.019ms returns 0
T23A0 000:580.716 JLINK_WriteReg(R2, 0x2000013C)
T23A0 000:580.729 - 0.019ms returns 0
T23A0 000:580.742 JLINK_WriteReg(R3, 0x00000000)
T23A0 000:580.759 - 0.024ms returns 0
T23A0 000:580.774 JLINK_WriteReg(R4, 0x00000000)
T23A0 000:580.787 - 0.019ms returns 0
T23A0 000:580.800 JLINK_WriteReg(R5, 0x00000000)
T23A0 000:580.813 - 0.019ms returns 0
T23A0 000:580.826 JLINK_WriteReg(R6, 0x00000000)
T23A0 000:580.839 - 0.019ms returns 0
T23A0 000:580.852 JLINK_WriteReg(R7, 0x00000000)
T23A0 000:580.865 - 0.019ms returns 0
T23A0 000:580.878 JLINK_WriteReg(R8, 0x00000000)
T23A0 000:580.891 - 0.019ms returns 0
T23A0 000:580.904 JLINK_WriteReg(R9, 0x20000134)
T23A0 000:580.917 - 0.019ms returns 0
T23A0 000:580.930 JLINK_WriteReg(R10, 0x00000000)
T23A0 000:580.943 - 0.019ms returns 0
T23A0 000:580.956 JLINK_WriteReg(R11, 0x00000000)
T23A0 000:580.969 - 0.019ms returns 0
T23A0 000:580.982 JLINK_WriteReg(R12, 0x00000000)
T23A0 000:580.995 - 0.019ms returns 0
T23A0 000:581.008 JLINK_WriteReg(R13 (SP), 0x20000800)
T23A0 000:581.021 - 0.019ms returns 0
T23A0 000:581.035 JLINK_WriteReg(R14, 0x20000001)
T23A0 000:581.047 - 0.019ms returns 0
T23A0 000:581.061 JLINK_WriteReg(R15 (PC), 0x200000D8)
T23A0 000:581.076 - 0.022ms returns 0
T23A0 000:581.090 JLINK_WriteReg(XPSR, 0x01000000)
T23A0 000:581.103 - 0.019ms returns 0
T23A0 000:581.116 JLINK_WriteReg(MSP, 0x20000800)
T23A0 000:581.129 - 0.019ms returns 0
T23A0 000:581.142 JLINK_WriteReg(PSP, 0x20000800)
T23A0 000:581.155 - 0.019ms returns 0
T23A0 000:581.168 JLINK_WriteReg(CFBP, 0x00000000)
T23A0 000:581.181 - 0.019ms returns 0
T23A0 000:581.195 JLINK_SetBPEx(Addr = 0x20000000, Type = 0xFFFFFFF2)
T23A0 000:581.208 - 0.020ms returns 0x0000000A
T23A0 000:581.222 JLINK_Go()
T23A0 000:581.239   CPU_ReadMem(4 bytes @ 0xE0001000)
T23A0 000:583.381 - 2.170ms
T23A0 000:583.403 JLINK_IsHalted()
T23A0 000:583.698 - 0.305ms returns FALSE
T23A0 000:583.720 JLINK_HasError()
T23A0 000:587.081 JLINK_IsHalted()
T23A0 000:587.418 - 0.346ms returns FALSE
T23A0 000:587.438 JLINK_HasError()
T23A0 000:589.080 JLINK_IsHalted()
T23A0 000:589.424 - 0.354ms returns FALSE
T23A0 000:589.451 JLINK_HasError()
T23A0 000:592.090 JLINK_IsHalted()
T23A0 000:592.422 - 0.339ms returns FALSE
T23A0 000:592.441 JLINK_HasError()
T23A0 000:594.080 JLINK_IsHalted()
T23A0 000:594.442 - 0.373ms returns FALSE
T23A0 000:594.465 JLINK_HasError()
T23A0 000:596.431 JLINK_IsHalted()
T23A0 000:598.609   CPU_ReadMem(2 bytes @ 0x20000000)
T23A0 000:598.933 - 2.511ms returns TRUE
T23A0 000:598.953 JLINK_ReadReg(R15 (PC))
T23A0 000:598.971 - 0.026ms returns 0x20000000
T23A0 000:598.988 JLINK_ClrBPEx(BPHandle = 0x0000000A)
T23A0 000:599.005 - 0.024ms returns 0x00
T23A0 000:599.022 JLINK_ReadReg(R0)
T23A0 000:599.038 - 0.024ms returns 0x00000000
T23A0 000:599.500 JLINK_WriteMem(0x2000013C, 0x2C4 Bytes, ...)
T23A0 000:599.522   Data:  42 69 11 43 41 61 70 47 91 B1 04 28 12 D8 B0 B5 ...
T23A0 000:599.552   CPU_WriteMem(708 bytes @ 0x2000013C)
T23A0 000:602.199 - 2.710ms returns 0x2C4
T23A0 000:602.221 JLINK_WriteMem(0x20000400, 0x13C Bytes, ...)
T23A0 000:602.238   Data:  07 10 03 F5 35 76 30 46 90 47 01 20 FF F7 88 FC ...
T23A0 000:602.265   CPU_WriteMem(316 bytes @ 0x20000400)
T23A0 000:603.667 - 1.457ms returns 0x13C
T23A0 000:603.691 JLINK_HasError()
T23A0 000:603.711 JLINK_WriteReg(R0, 0x08001800)
T23A0 000:603.732 - 0.029ms returns 0
T23A0 000:603.752 JLINK_WriteReg(R1, 0x00000400)
T23A0 000:603.771 - 0.028ms returns 0
T23A0 000:603.790 JLINK_WriteReg(R2, 0x2000013C)
T23A0 000:603.809 - 0.028ms returns 0
T23A0 000:603.828 JLINK_WriteReg(R3, 0x00000000)
T23A0 000:603.847 - 0.027ms returns 0
T23A0 000:603.866 JLINK_WriteReg(R4, 0x00000000)
T23A0 000:603.885 - 0.027ms returns 0
T23A0 000:603.904 JLINK_WriteReg(R5, 0x00000000)
T23A0 000:603.924 - 0.028ms returns 0
T23A0 000:603.943 JLINK_WriteReg(R6, 0x00000000)
T23A0 000:603.962 - 0.028ms returns 0
T23A0 000:603.981 JLINK_WriteReg(R7, 0x00000000)
T23A0 000:604.000 - 0.027ms returns 0
T23A0 000:604.019 JLINK_WriteReg(R8, 0x00000000)
T23A0 000:604.037 - 0.027ms returns 0
T23A0 000:604.057 JLINK_WriteReg(R9, 0x20000134)
T23A0 000:604.080 - 0.035ms returns 0
T23A0 000:604.103 JLINK_WriteReg(R10, 0x00000000)
T23A0 000:604.121 - 0.028ms returns 0
T23A0 000:604.141 JLINK_WriteReg(R11, 0x00000000)
T23A0 000:604.159 - 0.027ms returns 0
T23A0 000:604.178 JLINK_WriteReg(R12, 0x00000000)
T23A0 000:604.197 - 0.027ms returns 0
T23A0 000:604.216 JLINK_WriteReg(R13 (SP), 0x20000800)
T23A0 000:604.235 - 0.028ms returns 0
T23A0 000:604.255 JLINK_WriteReg(R14, 0x20000001)
T23A0 000:604.273 - 0.027ms returns 0
T23A0 000:604.292 JLINK_WriteReg(R15 (PC), 0x200000D8)
T23A0 000:604.311 - 0.027ms returns 0
T23A0 000:604.330 JLINK_WriteReg(XPSR, 0x01000000)
T23A0 000:604.349 - 0.027ms returns 0
T23A0 000:604.368 JLINK_WriteReg(MSP, 0x20000800)
T23A0 000:604.387 - 0.027ms returns 0
T23A0 000:604.406 JLINK_WriteReg(PSP, 0x20000800)
T23A0 000:604.425 - 0.031ms returns 0
T23A0 000:604.448 JLINK_WriteReg(CFBP, 0x00000000)
T23A0 000:604.467 - 0.027ms returns 0
T23A0 000:604.487 JLINK_SetBPEx(Addr = 0x20000000, Type = 0xFFFFFFF2)
T23A0 000:604.507 - 0.029ms returns 0x0000000B
T23A0 000:604.527 JLINK_Go()
T23A0 000:604.551   CPU_ReadMem(4 bytes @ 0xE0001000)
T23A0 000:606.753 - 2.237ms
T23A0 000:606.774 JLINK_IsHalted()
T23A0 000:607.128 - 0.363ms returns FALSE
T23A0 000:607.147 JLINK_HasError()
T23A0 000:610.449 JLINK_IsHalted()
T23A0 000:610.803 - 0.364ms returns FALSE
T23A0 000:610.824 JLINK_HasError()
T23A0 000:612.677 JLINK_IsHalted()
T23A0 000:613.048 - 0.380ms returns FALSE
T23A0 000:613.067 JLINK_HasError()
T23A0 000:614.666 JLINK_IsHalted()
T23A0 000:615.048 - 0.391ms returns FALSE
T23A0 000:615.067 JLINK_HasError()
T23A0 000:617.670 JLINK_IsHalted()
T23A0 000:618.053 - 0.395ms returns FALSE
T23A0 000:618.081 JLINK_HasError()
T23A0 000:619.664 JLINK_IsHalted()
T23A0 000:621.688   CPU_ReadMem(2 bytes @ 0x20000000)
T23A0 000:622.056 - 2.403ms returns TRUE
T23A0 000:622.079 JLINK_ReadReg(R15 (PC))
T23A0 000:622.108 - 0.038ms returns 0x20000000
T23A0 000:622.128 JLINK_ClrBPEx(BPHandle = 0x0000000B)
T23A0 000:622.147 - 0.028ms returns 0x00
T23A0 000:622.167 JLINK_ReadReg(R0)
T23A0 000:622.186 - 0.027ms returns 0x00000000
T23A0 000:622.732 JLINK_WriteMem(0x2000013C, 0x2C4 Bytes, ...)
T23A0 000:622.753   Data:  21 B9 5C F8 08 1C 01 43 4C F8 08 1C 02 2A 18 D0 ...
T23A0 000:622.777   CPU_WriteMem(708 bytes @ 0x2000013C)
T23A0 000:625.417 - 2.697ms returns 0x2C4
T23A0 000:625.442 JLINK_WriteMem(0x20000400, 0x13C Bytes, ...)
T23A0 000:625.461   Data:  C4 F8 C0 02 0B 2E 06 D3 05 F1 0D 00 FF F7 74 FE ...
T23A0 000:625.492   CPU_WriteMem(316 bytes @ 0x20000400)
T23A0 000:626.907 - 1.476ms returns 0x13C
T23A0 000:626.931 JLINK_HasError()
T23A0 000:626.951 JLINK_WriteReg(R0, 0x08001C00)
T23A0 000:626.972 - 0.030ms returns 0
T23A0 000:626.992 JLINK_WriteReg(R1, 0x00000400)
T23A0 000:627.010 - 0.028ms returns 0
T23A0 000:627.030 JLINK_WriteReg(R2, 0x2000013C)
T23A0 000:627.048 - 0.027ms returns 0
T23A0 000:627.068 JLINK_WriteReg(R3, 0x00000000)
T23A0 000:627.086 - 0.027ms returns 0
T23A0 000:627.106 JLINK_WriteReg(R4, 0x00000000)
T23A0 000:627.124 - 0.027ms returns 0
T23A0 000:627.143 JLINK_WriteReg(R5, 0x00000000)
T23A0 000:627.162 - 0.027ms returns 0
T23A0 000:627.181 JLINK_WriteReg(R6, 0x00000000)
T23A0 000:627.200 - 0.027ms returns 0
T23A0 000:627.219 JLINK_WriteReg(R7, 0x00000000)
T23A0 000:627.237 - 0.027ms returns 0
T23A0 000:627.257 JLINK_WriteReg(R8, 0x00000000)
T23A0 000:627.275 - 0.027ms returns 0
T23A0 000:627.294 JLINK_WriteReg(R9, 0x20000134)
T23A0 000:627.313 - 0.027ms returns 0
T23A0 000:627.332 JLINK_WriteReg(R10, 0x00000000)
T23A0 000:627.351 - 0.027ms returns 0
T23A0 000:627.370 JLINK_WriteReg(R11, 0x00000000)
T23A0 000:627.388 - 0.027ms returns 0
T23A0 000:627.408 JLINK_WriteReg(R12, 0x00000000)
T23A0 000:627.426 - 0.027ms returns 0
T23A0 000:627.445 JLINK_WriteReg(R13 (SP), 0x20000800)
T23A0 000:627.464 - 0.028ms returns 0
T23A0 000:627.484 JLINK_WriteReg(R14, 0x20000001)
T23A0 000:627.502 - 0.027ms returns 0
T23A0 000:627.522 JLINK_WriteReg(R15 (PC), 0x200000D8)
T23A0 000:627.540 - 0.033ms returns 0
T23A0 000:627.568 JLINK_WriteReg(XPSR, 0x01000000)
T23A0 000:627.586 - 0.028ms returns 0
T23A0 000:627.606 JLINK_WriteReg(MSP, 0x20000800)
T23A0 000:627.624 - 0.027ms returns 0
T23A0 000:627.644 JLINK_WriteReg(PSP, 0x20000800)
T23A0 000:627.662 - 0.027ms returns 0
T23A0 000:627.681 JLINK_WriteReg(CFBP, 0x00000000)
T23A0 000:627.700 - 0.027ms returns 0
T23A0 000:627.719 JLINK_SetBPEx(Addr = 0x20000000, Type = 0xFFFFFFF2)
T23A0 000:627.739 - 0.028ms returns 0x0000000C
T23A0 000:627.758 JLINK_Go()
T23A0 000:627.775   CPU_ReadMem(4 bytes @ 0xE0001000)
T23A0 000:630.003 - 2.255ms
T23A0 000:630.024 JLINK_IsHalted()
T23A0 000:630.272 - 0.257ms returns FALSE
T23A0 000:630.291 JLINK_HasError()
T23A0 000:632.966 JLINK_IsHalted()
T23A0 000:633.299 - 0.341ms returns FALSE
T23A0 000:633.315 JLINK_HasError()
T23A0 000:634.967 JLINK_IsHalted()
T23A0 000:635.264 - 0.306ms returns FALSE
T23A0 000:635.281 JLINK_HasError()
T23A0 000:636.966 JLINK_IsHalted()
T23A0 000:637.321 - 0.374ms returns FALSE
T23A0 000:637.355 JLINK_HasError()
T23A0 000:638.966 JLINK_IsHalted()
T23A0 000:639.302 - 0.346ms returns FALSE
T23A0 000:639.322 JLINK_HasError()
T23A0 000:641.971 JLINK_IsHalted()
T23A0 000:642.317 - 0.358ms returns FALSE
T23A0 000:642.341 JLINK_HasError()
T23A0 000:643.966 JLINK_IsHalted()
T23A0 000:645.892   CPU_ReadMem(2 bytes @ 0x20000000)
T23A0 000:646.271 - 2.317ms returns TRUE
T23A0 000:646.295 JLINK_ReadReg(R15 (PC))
T23A0 000:646.317 - 0.030ms returns 0x20000000
T23A0 000:646.337 JLINK_ClrBPEx(BPHandle = 0x0000000C)
T23A0 000:646.356 - 0.029ms returns 0x00
T23A0 000:646.376 JLINK_ReadReg(R0)
T23A0 000:646.395 - 0.028ms returns 0x00000000
T23A0 000:646.924 JLINK_WriteMem(0x2000013C, 0x2C4 Bytes, ...)
T23A0 000:646.946   Data:  05 F1 09 00 FF F7 D6 FD 84 ED AB 0A 03 B0 F0 BD ...
T23A0 000:646.976   CPU_WriteMem(708 bytes @ 0x2000013C)
